! Description : Siklu by Ceragon Generator 	 PartNumber Fc17590084
! Freq.	Start=71000.00[MHz]	Stop=86000.000000[MHz]	8883[Steps]
#	Hz	S	DB	R	50
!Freq.[Hz]	TPC	Backoff	MagS21[dB]	PhaseS21[DEG]	MagS12[dB]	PhaseS12[DEG]	MagS22[dB]	PhaseS22[DEG]
71000000000	-1	0	7.941	7.9410	7.941	7.9410	0	0
71100000000	-1	0	7.878	7.8780	7.878	7.8780	0	0
71200000000	-1	0	7.885	7.8850	7.885	7.8850	0	0
71300000000	-1	0	7.924	7.9240	7.924	7.9240	0	0
71400000000	-1	0	7.934	7.9340	7.934	7.9340	0	0
71500000000	-1	0	7.819	7.8190	7.819	7.8190	0	0
71600000000	-1	0	7.623	7.6230	7.623	7.6230	0	0
71700000000	-1	0	7.473	7.4730	7.473	7.4730	0	0
71800000000	-1	0	7.402	7.4020	7.402	7.4020	0	0
71900000000	-1	0	7.378	7.3780	7.378	7.3780	0	0
72000000000	-1	0	7.373	7.3730	7.373	7.3730	0	0
72100000000	-1	0	7.361	7.3610	7.361	7.3610	0	0
72200000000	-1	0	7.400	7.4000	7.400	7.4000	0	0
72300000000	-1	0	7.551	7.5510	7.551	7.5510	0	0
72400000000	-1	0	7.740	7.7400	7.740	7.7400	0	0
72500000000	-1	0	7.828	7.8280	7.828	7.8280	0	0
72600000000	-1	0	7.775	7.7750	7.775	7.7750	0	0
72700000000	-1	0	7.655	7.6550	7.655	7.6550	0	0
72800000000	-1	0	7.579	7.5790	7.579	7.5790	0	0
72900000000	-1	0	7.631	7.6310	7.631	7.6310	0	0
73000000000	-1	0	7.733	7.7330	7.733	7.7330	0	0
73100000000	-1	0	7.757	7.7570	7.757	7.7570	0	0
73200000000	-1	0	7.669	7.6690	7.669	7.6690	0	0
73300000000	-1	0	7.594	7.5940	7.594	7.5940	0	0
73400000000	-1	0	7.618	7.6180	7.618	7.6180	0	0
73500000000	-1	0	7.745	7.7450	7.745	7.7450	0	0
73600000000	-1	0	7.909	7.9090	7.909	7.9090	0	0
73700000000	-1	0	7.966	7.9660	7.966	7.9660	0	0
73800000000	-1	0	7.884	7.8840	7.884	7.8840	0	0
73900000000	-1	0	7.822	7.8220	7.822	7.8220	0	0
74000000000	-1	0	7.842	7.8420	7.842	7.8420	0	0
74100000000	-1	0	7.909	7.9090	7.909	7.9090	0	0
74200000000	-1	0	7.961	7.9610	7.961	7.9610	0	0
74300000000	-1	0	7.905	7.9050	7.905	7.9050	0	0
74400000000	-1	0	7.750	7.7500	7.750	7.7500	0	0
74500000000	-1	0	7.643	7.6430	7.643	7.6430	0	0
74600000000	-1	0	7.665	7.6650	7.665	7.6650	0	0
74700000000	-1	0	7.740	7.7400	7.740	7.7400	0	0
74800000000	-1	0	7.786	7.7860	7.786	7.7860	0	0
74900000000	-1	0	7.752	7.7520	7.752	7.7520	0	0
75000000000	-1	0	7.680	7.6800	7.680	7.6800	0	0
75100000000	-1	0	7.669	7.6690	7.669	7.6690	0	0
75200000000	-1	0	7.796	7.7960	7.796	7.7960	0	0
75300000000	-1	0	8.000	8.0000	8.000	8.0000	0	0
75400000000	-1	0	8.104	8.1040	8.104	8.1040	0	0
75500000000	-1	0	8.089	8.0890	8.089	8.0890	0	0
75600000000	-1	0	8.027	8.0270	8.027	8.0270	0	0
75700000000	-1	0	7.955	7.9550	7.955	7.9550	0	0
75800000000	-1	0	7.828	7.8280	7.828	7.8280	0	0
75900000000	-1	0	7.567	7.5670	7.567	7.5670	0	0
76000000000	-1	0	7.189	7.1890	7.189	7.1890	0	0
81000000000	-1	0	5.383	5.3830	5.383	5.3830	0	0
81100000000	-1	0	5.441	5.4410	5.441	5.4410	0	0
81200000000	-1	0	5.440	5.4400	5.440	5.4400	0	0
81300000000	-1	0	5.394	5.3940	5.394	5.3940	0	0
81400000000	-1	0	5.374	5.3740	5.374	5.3740	0	0
81500000000	-1	0	5.471	5.4710	5.471	5.4710	0	0
81600000000	-1	0	5.705	5.7050	5.705	5.7050	0	0
81700000000	-1	0	5.973	5.9730	5.973	5.9730	0	0
81800000000	-1	0	6.155	6.1550	6.155	6.1550	0	0
81900000000	-1	0	6.260	6.2600	6.260	6.2600	0	0
82000000000	-1	0	6.320	6.3200	6.320	6.3200	0	0
82100000000	-1	0	6.348	6.3480	6.348	6.3480	0	0
82200000000	-1	0	6.358	6.3580	6.358	6.3580	0	0
82300000000	-1	0	6.326	6.3260	6.326	6.3260	0	0
82400000000	-1	0	6.219	6.2190	6.219	6.2190	0	0
82500000000	-1	0	6.108	6.1080	6.108	6.1080	0	0
82600000000	-1	0	6.074	6.0740	6.074	6.0740	0	0
82700000000	-1	0	6.101	6.1010	6.101	6.1010	0	0
82800000000	-1	0	6.137	6.1370	6.137	6.1370	0	0
82900000000	-1	0	6.136	6.1360	6.136	6.1360	0	0
83000000000	-1	0	6.092	6.0920	6.092	6.0920	0	0
83100000000	-1	0	6.013	6.0130	6.013	6.0130	0	0
83200000000	-1	0	5.932	5.9320	5.932	5.9320	0	0
83300000000	-1	0	5.817	5.8170	5.817	5.8170	0	0
83400000000	-1	0	5.649	5.6490	5.649	5.6490	0	0
83500000000	-1	0	5.441	5.4410	5.441	5.4410	0	0
83600000000	-1	0	5.278	5.2780	5.278	5.2780	0	0
83700000000	-1	0	5.212	5.2120	5.212	5.2120	0	0
83800000000	-1	0	5.232	5.2320	5.232	5.2320	0	0
83900000000	-1	0	5.258	5.2580	5.258	5.2580	0	0
84000000000	-1	0	5.188	5.1880	5.188	5.1880	0	0
84100000000	-1	0	5.030	5.0300	5.030	5.0300	0	0
84200000000	-1	0	4.874	4.8740	4.874	4.8740	0	0
84300000000	-1	0	4.822	4.8220	4.822	4.8220	0	0
84400000000	-1	0	4.867	4.8670	4.867	4.8670	0	0
84500000000	-1	0	4.963	4.9630	4.963	4.9630	0	0
84600000000	-1	0	5.035	5.0350	5.035	5.0350	0	0
84700000000	-1	0	5.014	5.0140	5.014	5.0140	0	0
84800000000	-1	0	4.910	4.9100	4.910	4.9100	0	0
84900000000	-1	0	4.818	4.8180	4.818	4.8180	0	0
85000000000	-1	0	4.791	4.7910	4.791	4.7910	0	0
85100000000	-1	0	4.750	4.7500	4.750	4.7500	0	0
85200000000	-1	0	4.637	4.6370	4.637	4.6370	0	0
85300000000	-1	0	4.492	4.4920	4.492	4.4920	0	0
85400000000	-1	0	4.364	4.3640	4.364	4.3640	0	0
85500000000	-1	0	4.299	4.2990	4.299	4.2990	0	0
85600000000	-1	0	4.346	4.3460	4.346	4.3460	0	0
85700000000	-1	0	4.487	4.4870	4.487	4.4870	0	0
85800000000	-1	0	4.619	4.6190	4.619	4.6190	0	0
85900000000	-1	0	4.649	4.6490	4.649	4.6490	0	0
86000000000	-1	0	4.604	4.6040	4.604	4.6040	0	0
71000000000	3300	0	10.288	-2.3460	10.288	-2.3460	0	0
71000000000	3268	0	10.296	-2.3550	10.296	-2.3550	0	0
71000000000	3236	0	10.305	-2.3640	10.305	-2.3640	0	0
71000000000	3204	0	10.316	-2.3750	10.316	-2.3750	0	0
71000000000	3172	0	10.325	-2.3840	10.325	-2.3840	0	0
71000000000	3140	0	10.337	-2.3960	10.337	-2.3960	0	0
71000000000	3108	0	10.350	-2.4090	10.350	-2.4090	0	0
71000000000	3076	0	10.362	-2.4210	10.362	-2.4210	0	0
71000000000	3044	0	10.375	-2.4340	10.375	-2.4340	0	0
71000000000	3012	0	10.389	-2.4470	10.389	-2.4470	0	0
71000000000	2980	0	10.404	-2.4630	10.404	-2.4630	0	0
71000000000	2948	0	10.420	-2.4790	10.420	-2.4790	0	0
71000000000	2916	0	10.437	-2.4960	10.437	-2.4960	0	0
71000000000	2884	0	10.458	-2.5160	10.458	-2.5160	0	0
71000000000	2852	0	10.479	-2.5380	10.479	-2.5380	0	0
71000000000	2820	0	10.501	-2.5600	10.501	-2.5600	0	0
71000000000	2788	0	10.528	-2.5870	10.528	-2.5870	0	0
71000000000	2756	0	10.558	-2.6160	10.558	-2.6160	0	0
71000000000	2724	0	10.589	-2.6480	10.589	-2.6480	0	0
71000000000	2692	0	10.624	-2.6820	10.624	-2.6820	0	0
71000000000	2660	0	10.664	-2.7220	10.664	-2.7220	0	0
71000000000	2628	0	10.707	-2.7650	10.707	-2.7650	0	0
71000000000	2596	0	10.756	-2.8150	10.756	-2.8150	0	0
71000000000	2564	0	10.811	-2.8690	10.811	-2.8690	0	0
71000000000	2532	0	10.871	-2.9300	10.871	-2.9300	0	0
71000000000	2500	0	10.937	-2.9960	10.937	-2.9960	0	0
71000000000	2468	0	11.012	-3.0710	11.012	-3.0710	0	0
71000000000	2436	0	11.094	-3.1530	11.094	-3.1530	0	0
71000000000	2404	0	11.188	-3.2470	11.188	-3.2470	0	0
71000000000	2372	0	11.291	-3.3500	11.291	-3.3500	0	0
71000000000	2340	0	11.405	-3.4640	11.405	-3.4640	0	0
71000000000	2308	0	11.533	-3.5920	11.533	-3.5920	0	0
71000000000	2276	0	11.676	-3.7350	11.676	-3.7350	0	0
71000000000	2244	0	11.835	-3.8940	11.835	-3.8940	0	0
71000000000	2212	0	12.012	-4.0700	12.012	-4.0700	0	0
71000000000	2180	0	12.208	-4.2670	12.208	-4.2670	0	0
71000000000	2148	0	12.426	-4.4850	12.426	-4.4850	0	0
71000000000	2116	0	12.672	-4.7310	12.672	-4.7310	0	0
71000000000	2084	0	12.944	-5.0030	12.944	-5.0030	0	0
71000000000	2052	0	13.247	-5.3060	13.247	-5.3060	0	0
71000000000	2020	0	13.585	-5.6430	13.585	-5.6430	0	0
71000000000	1988	0	13.965	-6.0230	13.965	-6.0230	0	0
71000000000	1956	0	14.378	-6.4370	14.378	-6.4370	0	0
71000000000	1924	0	14.849	-6.9080	14.849	-6.9080	0	0
71000000000	1892	0	15.367	-7.4260	15.367	-7.4260	0	0
71000000000	1860	0	15.944	-8.0030	15.944	-8.0030	0	0
71000000000	1828	0	16.584	-8.6430	16.584	-8.6430	0	0
71000000000	1796	0	17.292	-9.3510	17.292	-9.3510	0	0
71000000000	1764	0	18.083	-10.1420	18.083	-10.1420	0	0
71000000000	1732	0	18.960	-11.0180	18.960	-11.0180	0	0
71000000000	1700	0	19.918	-11.9770	19.918	-11.9770	0	0
71000000000	1668	0	20.955	-13.0140	20.955	-13.0140	0	0
71000000000	1636	0	22.085	-14.1440	22.085	-14.1440	0	0
71000000000	1604	0	23.298	-15.3570	23.298	-15.3570	0	0
71000000000	1572	0	24.588	-16.6470	24.588	-16.6470	0	0
71000000000	1540	0	25.944	-18.0030	25.944	-18.0030	0	0
71000000000	1508	0	27.352	-19.4110	27.352	-19.4110	0	0
71000000000	1476	0	28.796	-20.8550	28.796	-20.8550	0	0
71000000000	1444	0	30.264	-22.3230	30.264	-22.3230	0	0
71000000000	1412	0	31.747	-23.8060	31.747	-23.8060	0	0
71000000000	1380	0	33.227	-25.2850	33.227	-25.2850	0	0
71000000000	1348	0	34.694	-26.7530	34.694	-26.7530	0	0
71000000000	1316	0	36.127	-28.1850	36.127	-28.1850	0	0
71000000000	1284	0	37.534	-29.5930	37.534	-29.5930	0	0
71000000000	1252	0	38.908	-30.9670	38.908	-30.9670	0	0
71000000000	1220	0	40.231	-32.2900	40.231	-32.2900	0	0
71000000000	1188	0	41.517	-33.5760	41.517	-33.5760	0	0
71000000000	1156	0	42.752	-34.8110	42.752	-34.8110	0	0
71000000000	1124	0	43.911	-35.9700	43.911	-35.9700	0	0
71000000000	1092	0	45.030	-37.0890	45.030	-37.0890	0	0
71000000000	1060	0	46.091	-38.1500	46.091	-38.1500	0	0
71000000000	1028	0	46.984	-39.0420	46.984	-39.0420	0	0
71000000000	996	0	47.320	-39.3790	47.320	-39.3790	0	0
71000000000	964	0	47.825	-39.8840	47.825	-39.8840	0	0
71000000000	932	0	48.790	-40.8480	48.790	-40.8480	0	0
71000000000	900	0	49.592	-41.6510	49.592	-41.6510	0	0
71000000000	868	0	50.232	-42.2910	50.232	-42.2910	0	0
71000000000	836	0	50.896	-42.9550	50.896	-42.9550	0	0
71000000000	804	0	51.533	-43.5920	51.533	-43.5920	0	0
71000000000	772	0	51.973	-44.0320	51.973	-44.0320	0	0
71000000000	740	0	52.436	-44.4940	52.436	-44.4940	0	0
71000000000	708	0	52.879	-44.9370	52.879	-44.9370	0	0
71000000000	676	0	53.186	-45.2450	53.186	-45.2450	0	0
71000000000	644	0	53.427	-45.4850	53.427	-45.4850	0	0
71000000000	612	0	53.693	-45.7520	53.693	-45.7520	0	0
71000000000	580	0	53.918	-45.9770	53.918	-45.9770	0	0
71100000000	3300	0	10.053	-2.1750	10.053	-2.1750	0	0
71100000000	3268	0	10.062	-2.1840	10.062	-2.1840	0	0
71100000000	3236	0	10.070	-2.1930	10.070	-2.1930	0	0
71100000000	3204	0	10.082	-2.2040	10.082	-2.2040	0	0
71100000000	3172	0	10.091	-2.2140	10.091	-2.2140	0	0
71100000000	3140	0	10.103	-2.2260	10.103	-2.2260	0	0
71100000000	3108	0	10.115	-2.2370	10.115	-2.2370	0	0
71100000000	3076	0	10.128	-2.2500	10.128	-2.2500	0	0
71100000000	3044	0	10.140	-2.2630	10.140	-2.2630	0	0
71100000000	3012	0	10.155	-2.2780	10.155	-2.2780	0	0
71100000000	2980	0	10.170	-2.2920	10.170	-2.2920	0	0
71100000000	2948	0	10.186	-2.3090	10.186	-2.3090	0	0
71100000000	2916	0	10.205	-2.3270	10.205	-2.3270	0	0
71100000000	2884	0	10.225	-2.3470	10.225	-2.3470	0	0
71100000000	2852	0	10.245	-2.3680	10.245	-2.3680	0	0
71100000000	2820	0	10.270	-2.3920	10.270	-2.3920	0	0
71100000000	2788	0	10.296	-2.4180	10.296	-2.4180	0	0
71100000000	2756	0	10.324	-2.4460	10.324	-2.4460	0	0
71100000000	2724	0	10.356	-2.4780	10.356	-2.4780	0	0
71100000000	2692	0	10.392	-2.5140	10.392	-2.5140	0	0
71100000000	2660	0	10.431	-2.5540	10.431	-2.5540	0	0
71100000000	2628	0	10.475	-2.5980	10.475	-2.5980	0	0
71100000000	2596	0	10.524	-2.6470	10.524	-2.6470	0	0
71100000000	2564	0	10.578	-2.7000	10.578	-2.7000	0	0
71100000000	2532	0	10.638	-2.7610	10.638	-2.7610	0	0
71100000000	2500	0	10.705	-2.8270	10.705	-2.8270	0	0
71100000000	2468	0	10.779	-2.9020	10.779	-2.9020	0	0
71100000000	2436	0	10.862	-2.9850	10.862	-2.9850	0	0
71100000000	2404	0	10.955	-3.0770	10.955	-3.0770	0	0
71100000000	2372	0	11.056	-3.1780	11.056	-3.1780	0	0
71100000000	2340	0	11.169	-3.2920	11.169	-3.2920	0	0
71100000000	2308	0	11.296	-3.4180	11.296	-3.4180	0	0
71100000000	2276	0	11.439	-3.5620	11.439	-3.5620	0	0
71100000000	2244	0	11.597	-3.7200	11.597	-3.7200	0	0
71100000000	2212	0	11.775	-3.8970	11.775	-3.8970	0	0
71100000000	2180	0	11.968	-4.0900	11.968	-4.0900	0	0
71100000000	2148	0	12.185	-4.3070	12.185	-4.3070	0	0
71100000000	2116	0	12.427	-4.5490	12.427	-4.5490	0	0
71100000000	2084	0	12.699	-4.8220	12.699	-4.8220	0	0
71100000000	2052	0	13.000	-5.1230	13.000	-5.1230	0	0
71100000000	2020	0	13.333	-5.4560	13.333	-5.4560	0	0
71100000000	1988	0	13.712	-5.8350	13.712	-5.8350	0	0
71100000000	1956	0	14.128	-6.2500	14.128	-6.2500	0	0
71100000000	1924	0	14.589	-6.7110	14.589	-6.7110	0	0
71100000000	1892	0	15.105	-7.2280	15.105	-7.2280	0	0
71100000000	1860	0	15.677	-7.8000	15.677	-7.8000	0	0
71100000000	1828	0	16.316	-8.4390	16.316	-8.4390	0	0
71100000000	1796	0	17.022	-9.1450	17.022	-9.1450	0	0
71100000000	1764	0	17.812	-9.9340	17.812	-9.9340	0	0
71100000000	1732	0	18.680	-10.8030	18.680	-10.8030	0	0
71100000000	1700	0	19.632	-11.7540	19.632	-11.7540	0	0
71100000000	1668	0	20.670	-12.7920	20.670	-12.7920	0	0
71100000000	1636	0	21.792	-13.9150	21.792	-13.9150	0	0
71100000000	1604	0	23.003	-15.1260	23.003	-15.1260	0	0
71100000000	1572	0	24.285	-16.4080	24.285	-16.4080	0	0
71100000000	1540	0	25.642	-17.7650	25.642	-17.7650	0	0
71100000000	1508	0	27.049	-19.1720	27.049	-19.1720	0	0
71100000000	1476	0	28.492	-20.6150	28.492	-20.6150	0	0
71100000000	1444	0	29.961	-22.0830	29.961	-22.0830	0	0
71100000000	1412	0	31.447	-23.5690	31.447	-23.5690	0	0
71100000000	1380	0	32.933	-25.0550	32.933	-25.0550	0	0
71100000000	1348	0	34.400	-26.5230	34.400	-26.5230	0	0
71100000000	1316	0	35.851	-27.9730	35.851	-27.9730	0	0
71100000000	1284	0	37.264	-29.3860	37.264	-29.3860	0	0
71100000000	1252	0	38.645	-30.7670	38.645	-30.7670	0	0
71100000000	1220	0	39.983	-32.1060	39.983	-32.1060	0	0
71100000000	1188	0	41.275	-33.3980	41.275	-33.3980	0	0
71100000000	1156	0	42.526	-34.6480	42.526	-34.6480	0	0
71100000000	1124	0	43.722	-35.8440	43.722	-35.8440	0	0
71100000000	1092	0	44.864	-36.9870	44.864	-36.9870	0	0
71100000000	1060	0	45.937	-38.0590	45.937	-38.0590	0	0
71100000000	1028	0	46.928	-39.0500	46.928	-39.0500	0	0
71100000000	996	0	47.262	-39.3840	47.262	-39.3840	0	0
71100000000	964	0	47.727	-39.8500	47.727	-39.8500	0	0
71100000000	932	0	48.734	-40.8570	48.734	-40.8570	0	0
71100000000	900	0	49.581	-41.7030	49.581	-41.7030	0	0
71100000000	868	0	50.328	-42.4500	50.328	-42.4500	0	0
71100000000	836	0	50.949	-43.0710	50.949	-43.0710	0	0
71100000000	804	0	51.579	-43.7020	51.579	-43.7020	0	0
71100000000	772	0	52.107	-44.2290	52.107	-44.2290	0	0
71100000000	740	0	52.572	-44.6940	52.572	-44.6940	0	0
71100000000	708	0	52.989	-45.1120	52.989	-45.1120	0	0
71100000000	676	0	53.331	-45.4530	53.331	-45.4530	0	0
71100000000	644	0	53.679	-45.8020	53.679	-45.8020	0	0
71200000000	3300	0	10.051	-2.1670	10.051	-2.1670	0	0
71200000000	3268	0	10.061	-2.1760	10.061	-2.1760	0	0
71200000000	3236	0	10.071	-2.1860	10.071	-2.1860	0	0
71200000000	3204	0	10.080	-2.1960	10.080	-2.1960	0	0
71200000000	3172	0	10.091	-2.2060	10.091	-2.2060	0	0
71200000000	3140	0	10.102	-2.2180	10.102	-2.2180	0	0
71200000000	3108	0	10.114	-2.2300	10.114	-2.2300	0	0
71200000000	3076	0	10.127	-2.2420	10.127	-2.2420	0	0
71200000000	3044	0	10.140	-2.2550	10.140	-2.2550	0	0
71200000000	3012	0	10.154	-2.2700	10.154	-2.2700	0	0
71200000000	2980	0	10.169	-2.2850	10.169	-2.2850	0	0
71200000000	2948	0	10.184	-2.3000	10.184	-2.3000	0	0
71200000000	2916	0	10.203	-2.3180	10.203	-2.3180	0	0
71200000000	2884	0	10.221	-2.3370	10.221	-2.3370	0	0
71200000000	2852	0	10.243	-2.3580	10.243	-2.3580	0	0
71200000000	2820	0	10.266	-2.3820	10.266	-2.3820	0	0
71200000000	2788	0	10.293	-2.4080	10.293	-2.4080	0	0
71200000000	2756	0	10.321	-2.4370	10.321	-2.4370	0	0
71200000000	2724	0	10.352	-2.4680	10.352	-2.4680	0	0
71200000000	2692	0	10.387	-2.5020	10.387	-2.5020	0	0
71200000000	2660	0	10.426	-2.5410	10.426	-2.5410	0	0
71200000000	2628	0	10.470	-2.5850	10.470	-2.5850	0	0
71200000000	2596	0	10.518	-2.6340	10.518	-2.6340	0	0
71200000000	2564	0	10.571	-2.6870	10.571	-2.6870	0	0
71200000000	2532	0	10.633	-2.7480	10.633	-2.7480	0	0
71200000000	2500	0	10.697	-2.8130	10.697	-2.8130	0	0
71200000000	2468	0	10.771	-2.8870	10.771	-2.8870	0	0
71200000000	2436	0	10.853	-2.9680	10.853	-2.9680	0	0
71200000000	2404	0	10.944	-3.0600	10.944	-3.0600	0	0
71200000000	2372	0	11.045	-3.1610	11.045	-3.1610	0	0
71200000000	2340	0	11.159	-3.2750	11.159	-3.2750	0	0
71200000000	2308	0	11.284	-3.3990	11.284	-3.3990	0	0
71200000000	2276	0	11.426	-3.5420	11.426	-3.5420	0	0
71200000000	2244	0	11.583	-3.6990	11.583	-3.6990	0	0
71200000000	2212	0	11.758	-3.8740	11.758	-3.8740	0	0
71200000000	2180	0	11.953	-4.0680	11.953	-4.0680	0	0
71200000000	2148	0	12.169	-4.2840	12.169	-4.2840	0	0
71200000000	2116	0	12.412	-4.5280	12.412	-4.5280	0	0
71200000000	2084	0	12.681	-4.7970	12.681	-4.7970	0	0
71200000000	2052	0	12.983	-5.0980	12.983	-5.0980	0	0
71200000000	2020	0	13.316	-5.4310	13.316	-5.4310	0	0
71200000000	1988	0	13.692	-5.8070	13.692	-5.8070	0	0
71200000000	1956	0	14.106	-6.2210	14.106	-6.2210	0	0
71200000000	1924	0	14.570	-6.6860	14.570	-6.6860	0	0
71200000000	1892	0	15.081	-7.1960	15.081	-7.1960	0	0
71200000000	1860	0	15.657	-7.7720	15.657	-7.7720	0	0
71200000000	1828	0	16.290	-8.4050	16.290	-8.4050	0	0
71200000000	1796	0	17.000	-9.1150	17.000	-9.1150	0	0
71200000000	1764	0	17.785	-9.9010	17.785	-9.9010	0	0
71200000000	1732	0	18.649	-10.7640	18.649	-10.7640	0	0
71200000000	1700	0	19.601	-11.7170	19.601	-11.7170	0	0
71200000000	1668	0	20.644	-12.7590	20.644	-12.7590	0	0
71200000000	1636	0	21.765	-13.8810	21.765	-13.8810	0	0
71200000000	1604	0	22.977	-15.0920	22.977	-15.0920	0	0
71200000000	1572	0	24.260	-16.3760	24.260	-16.3760	0	0
71200000000	1540	0	25.616	-17.7320	25.616	-17.7320	0	0
71200000000	1508	0	27.026	-19.1410	27.026	-19.1410	0	0
71200000000	1476	0	28.468	-20.5840	28.468	-20.5840	0	0
71200000000	1444	0	29.943	-22.0590	29.943	-22.0590	0	0
71200000000	1412	0	31.433	-23.5480	31.433	-23.5480	0	0
71200000000	1380	0	32.923	-25.0390	32.923	-25.0390	0	0
71200000000	1348	0	34.397	-26.5130	34.397	-26.5130	0	0
71200000000	1316	0	35.854	-27.9690	35.854	-27.9690	0	0
71200000000	1284	0	37.281	-29.3970	37.281	-29.3970	0	0
71200000000	1252	0	38.674	-30.7890	38.674	-30.7890	0	0
71200000000	1220	0	40.018	-32.1340	40.018	-32.1340	0	0
71200000000	1188	0	41.331	-33.4470	41.331	-33.4470	0	0
71200000000	1156	0	42.595	-34.7110	42.595	-34.7110	0	0
71200000000	1124	0	43.822	-35.9380	43.822	-35.9380	0	0
71200000000	1092	0	44.993	-37.1080	44.993	-37.1080	0	0
71200000000	1060	0	46.085	-38.2010	46.085	-38.2010	0	0
71200000000	1028	0	47.076	-39.1920	47.076	-39.1920	0	0
71200000000	996	0	47.404	-39.5200	47.404	-39.5200	0	0
71200000000	964	0	47.923	-40.0390	47.923	-40.0390	0	0
71200000000	932	0	48.683	-40.7980	48.683	-40.7980	0	0
71200000000	900	0	49.766	-41.8810	49.766	-41.8810	0	0
71200000000	868	0	50.556	-42.6710	50.556	-42.6710	0	0
71200000000	836	0	51.426	-43.5420	51.426	-43.5420	0	0
71200000000	804	0	51.984	-44.1000	51.984	-44.1000	0	0
71200000000	772	0	52.523	-44.6380	52.523	-44.6380	0	0
71200000000	740	0	52.983	-45.0980	52.983	-45.0980	0	0
71200000000	708	0	53.465	-45.5810	53.465	-45.5810	0	0
71300000000	3300	0	10.243	-2.3190	10.243	-2.3190	0	0
71300000000	3268	0	10.252	-2.3280	10.252	-2.3280	0	0
71300000000	3236	0	10.261	-2.3370	10.261	-2.3370	0	0
71300000000	3204	0	10.269	-2.3450	10.269	-2.3450	0	0
71300000000	3172	0	10.282	-2.3580	10.282	-2.3580	0	0
71300000000	3140	0	10.291	-2.3670	10.291	-2.3670	0	0
71300000000	3108	0	10.304	-2.3800	10.304	-2.3800	0	0
71300000000	3076	0	10.316	-2.3920	10.316	-2.3920	0	0
71300000000	3044	0	10.327	-2.4030	10.327	-2.4030	0	0
71300000000	3012	0	10.342	-2.4180	10.342	-2.4180	0	0
71300000000	2980	0	10.357	-2.4330	10.357	-2.4330	0	0
71300000000	2948	0	10.372	-2.4480	10.372	-2.4480	0	0
71300000000	2916	0	10.392	-2.4680	10.392	-2.4680	0	0
71300000000	2884	0	10.410	-2.4860	10.410	-2.4860	0	0
71300000000	2852	0	10.429	-2.5060	10.429	-2.5060	0	0
71300000000	2820	0	10.454	-2.5300	10.454	-2.5300	0	0
71300000000	2788	0	10.480	-2.5560	10.480	-2.5560	0	0
71300000000	2756	0	10.509	-2.5850	10.509	-2.5850	0	0
71300000000	2724	0	10.539	-2.6150	10.539	-2.6150	0	0
